
**** 09/30/25 11:20:31 **** PSpice 23.1.0 (30 January 2024) *** ID# 0 ********

 ** Profile: "SCHEMATIC1-bias"  [ C:\Sebas\02-Facultad\PSpice\02 - Voltímetro\005_etapa_uno_compensado_sim\005_etapa_uno_compensado_s


 ****     CIRCUIT DESCRIPTION


******************************************************************************




** Creating circuit file "bias.cir" 
** WARNING: THIS AUTOMATICALLY GENERATED FILE MAY BE OVERWRITTEN BY SUBSEQUENT SIMULATIONS

*Libraries: 
* Profile Libraries :
* Local Libraries :
* From [PSPICE NETLIST] section of C:\cds_spb_home\cdssetup\OrCAD_PSpiceTIPSpice_Install\23.1.0\PSpice.ini file:
.lib "C:\Users\sebas\OneDrive - alum.uca.es\B - Spice Models\Transistor\BSS138P.lib" 
.lib "C:\Users\sebas\OneDrive - alum.uca.es\B - Spice Models\Transistor\DMG2302.lib" 
.lib "C:\Users\sebas\OneDrive - alum.uca.es\B - Spice Models\Transistor\2N7000.onsemi.lib" 
.lib "C:\Users\sebas\OneDrive - alum.uca.es\B - Spice Models\Transistor\2N7000.nxp.lib" 
.lib "nom_pspti.lib" 
.lib "nom.lib" 
.inc "C:\Users\sebas\OneDrive - alum.uca.es\04 - Proyectos\01 - [GOAL] TFG\Documentación\include.txt" 

*Analysis directives: 

**** INCLUDING include.txt ****
+ .options PTRANABSTOL=10u PTRANVNTOL=100u 

**** RESUMING bias.cir ****
.TRAN  0 100m 0 0.1m 
.OPTIONS ADVCONV
.OPTIONS FILEMODELSEARCH
.PROBE64 V(alias(*)) I(alias(*)) W(alias(*)) D(alias(*)) NOISE(alias(*)) 
.INC "..\SCHEMATIC1.net" 



**** INCLUDING SCHEMATIC1.net ****
* source 005_ETAPA_UNO_COMPENSADO_SIM
V_V5         5VCC 0 5Vdc
V_V6         0 5VEE 5Vdc
R_R4         N21468 N21482  1k TC=0,0 
X_U3         N21612 N21468 VCC VEE N21482 OPAx210
R_R6         N21662 N21612  1k TC=0,0 
X_R11         5VEE N21826 5VCC POT PARAMS: SET={POT_SET} VALUE=50k
V_V3         VCC 0 10Vdc
R_R10         0 N21830  100 TC=0,0 
R_R7         0 N21612  100k TC=0,0 
R_R3         0 N21468  1k TC=0,0 
V_V2         N21602 0  AC 0.1
+SIN 2.5 0.1 50 0 0 0
R_R9         N21826 N21830  200k TC=0,0 
R_R5         N21602 N21612  1k TC=0,0 
R_R8         N21830 N21612  900 TC=0,0 
V_V4         0 VEE 10Vdc
V_V1         0 N21662 0
.PARAM  pot_set=502.865m

**** RESUMING bias.cir ****
.END

**** 09/30/25 11:20:31 **** PSpice 23.1.0 (30 January 2024) *** ID# 0 ********

 ** Profile: "SCHEMATIC1-bias"  [ C:\Sebas\02-Facultad\PSpice\02 - Voltímetro\005_etapa_uno_compensado_sim\005_etapa_uno_compensado_s


 ****     Diode MODEL PARAMETERS


******************************************************************************




               X_U3.X_U39.DVNF X_U3.X_U40.DVNF X_U3.X_U43.DVN  
          IS  100.000000E-18  100.000000E-18  100.000000E-18 
          KF    3.162278E-12    3.162278E-12    3.162278E-12 


**** 09/30/25 11:20:31 **** PSpice 23.1.0 (30 January 2024) *** ID# 0 ********

 ** Profile: "SCHEMATIC1-bias"  [ C:\Sebas\02-Facultad\PSpice\02 - Voltímetro\005_etapa_uno_compensado_sim\005_etapa_uno_compensado_s


 ****     Resistor MODEL PARAMETERS


******************************************************************************




               X_U3.R_NOISELESS 
  T_Measured   27            
   T_Current -273.15         
           R    1            


**** 09/30/25 11:20:31 **** PSpice 23.1.0 (30 January 2024) *** ID# 0 ********

 ** Profile: "SCHEMATIC1-bias"  [ C:\Sebas\02-Facultad\PSpice\02 - Voltímetro\005_etapa_uno_compensado_sim\005_etapa_uno_compensado_s


 ****     Voltage Controlled Switch MODEL PARAMETERS


******************************************************************************




               X_U3.X_S1._S1   X_U3.X_S2._S2   
         RON     .01             .01         
        ROFF    1.000000E+12    1.000000E+12 
         VON     .01             .01         
        VOFF    0               0            


               X_U3.X_U20.ESD_SW 
         RON   50            
        ROFF    1.000000E+12 
         VON     .7          
        VOFF     .65         


               X_U3.X_U21.ESD_SW 
         RON   50            
        ROFF    1.000000E+12 
         VON     .5          
        VOFF     .45         


               X_U3.X_U25.OL_SW 
         RON    1.000000E-03 
        ROFF    1.000000E+09 
         VON     .9          
        VOFF     .8          


               X_U3.X_U5.ESD_SW 
         RON   50            
        ROFF    1.000000E+12 
         VON     .5          
        VOFF     .45         


**** 09/30/25 11:20:31 **** PSpice 23.1.0 (30 January 2024) *** ID# 0 ********

 ** Profile: "SCHEMATIC1-bias"  [ C:\Sebas\02-Facultad\PSpice\02 - Voltímetro\005_etapa_uno_compensado_sim\005_etapa_uno_compensado_s


 ****     INITIAL TRANSIENT SOLUTION       TEMPERATURE =   27.000 DEG C


******************************************************************************



 NODE   VOLTAGE     NODE   VOLTAGE     NODE   VOLTAGE     NODE   VOLTAGE


(  VCC)   10.0000  (  VEE)  -10.0000  ( 5VCC)    5.0000  ( 5VEE)   -5.0000      

(N21468)     .8306 (N21482)    1.6611 (N21602)    2.5000 (N21612)     .8305     

(N21662)    0.0000 (N21826)    -.0221 (N21830)     .0830 (X_U3.MID)-3.782E-18   

(X_U3.V11)-3.247E-09                  (X_U3.V12)-3.266E-09                      

(X_U3.ESDN)     .8306                 (X_U3.ESDP)     .8305                     

(X_U3.VCLP)    4.0708                 (X_U3.CLAMP)    4.0609                    

(X_U3.VCC_B)   10.0000                (X_U3.VEE_B)  -10.0000                    

(X_U3.VIMON)     .8306                (X_U3.VOUT_S)    1.6611                   

(X_U3.VSENSE)    4.0609               (X_U3.VCC_CLP)    9.9507                  

(X_U3.VEE_CLP)   -9.9670              (X_U3.X_U39.3)    0.0000                  

(X_U3.X_U39.4)    0.0000              (X_U3.X_U39.5)    0.0000                  

(X_U3.X_U39.6)    0.0000              (X_U3.X_U39.7)     .8338                  

(X_U3.X_U39.8)     .8338              (X_U3.X_U40.3)    0.0000                  

(X_U3.X_U40.4)    0.0000              (X_U3.X_U40.5)    0.0000                  

(X_U3.X_U40.6)    0.0000              (X_U3.X_U40.7)     .8338                  

(X_U3.X_U40.8)     .8338              (X_U3.X_U43.3)    0.0000                  

(X_U3.X_U43.4)    0.0000              (X_U3.X_U43.5)    0.0000                  

(X_U3.X_U43.6)    0.0000              (X_U3.X_U43.7)     .8338                  

(X_U3.X_U43.8)     .8338              (X_U3.CL_CLAMP)    4.0708                 

(X_U3.N5296587) 501.0E-09             (X_U3.N5296597)    8.3500                 

(X_U3.N5296613) 593.2E-06             (X_U3.N5296623) 83.04E-09                 

(X_U3.N5296637)   -2.3900             (X_U3.N5296643)-501.9E-09                 

(X_U3.N5297649)     .8306             (X_U3.N5297653)     .8306                 

(X_U3.N5297689)     .8306             (X_U3.N5297697)     .8306                 

(X_U3.N5297811)    1.6611             (X_U3.N5297995)    4.0708                 

(X_U3.N5298043)     .8306             (X_U3.N5298247)  213.2300                 

(X_U3.N5298259)     .1896             (X_U3.N5298335)    8.5000                 

(X_U3.N5298539)  213.4700             (X_U3.N5298547)    2.1345                 

(X_U3.N5298565)    1.6611             (X_U3.N5298577)     .8305                 

(X_U3.N5298735) 92.71E-06             (X_U3.N5298821)    4.0609                 

(X_U3.N5298855)    4.0609             (X_U3.N5298889)    4.0609                 

(X_U3.N5298911)    4.0708             (X_U3.N5298977)  214.2500                 

(X_U3.N5298999)  153.5900             (X_U3.N5299017)  213.4900                 

(X_U3.N5299035)  213.4900             (X_U3.N5299057)  213.4900                 

(X_U3.N5299111)  213.4500             (X_U3.N5299325)     .8306                 

(X_U3.N5299343)     .8306             (X_U3.N5300195)  213.4900                 

(X_U3.N5300247)     .8306             (X_U3.N5300373)  213.4900                 

(X_U3.N5300937)   -8.5000             (X_U3.N5301533)   55.5000                 

(X_U3.N5301537)    4.0609             (X_U3.N5301543)  205.0000                 

(X_U3.N5301563)-3.782E-18             (X_U3.N5301567)-3.782E-18                 

(X_U3.N5301577)-3.782E-18             (X_U3.N5301581)-3.782E-18                 

(X_U3.N5301591)-3.782E-18             (X_U3.N5301595)-3.782E-18                 

(X_U3.N5302227)-3.782E-18             (X_U3.N5302261)-3.782E-18                 

(X_U3.N5302295)-3.782E-18             (X_U3.N5302333)-3.782E-18                 

(X_U3.N5302369)-3.782E-18             (X_U3.N5302405)-3.782E-18                 

(X_U3.N5302475)-3.782E-18             (X_U3.N5302495)  -55.5000                 

(X_U3.N5302499) -205.0000             (X_U3.N5302951)   10.0000                 

(X_U3.N5302991)  -10.0000             (X_U3.N5303741)    9.9507                 

(X_U3.N5303747)     .8208             (X_U3.N5303803)    7.3208                 

(X_U3.N5303823)    9.9507             (X_U3.N5304181)-3.247E-09                 

(X_U3.N5304195)-3.782E-18             (X_U3.N5304303)     .8208                 

(X_U3.N5304315)     .8208             (X_U3.N5304383)    7.3208                 

(X_U3.N5304405)    7.3208             (X_U3.N5304435)-3.266E-09                 

(X_U3.N5304593)   -9.9670             (X_U3.N5304615)   -9.9670                 

(X_U3.N5331892) 83.03E-09             (X_U3.N5331902) 72.83E-12                 

(X_U3.N5336063) 83.03E-09             (X_U3.N5354255)    4.0605                 

(X_U3.N5356232)     .0094             (X_U3.N52998091)  213.4900                

(X_U3.CLAW_CLAMP)    4.0708           (X_U3.SW_OL_OPAx210)-3.782E-18        




    VOLTAGE SOURCE CURRENTS
    NAME         CURRENT

    V_V5        -1.997E-04
    V_V6        -2.003E-04
    V_V3        -3.031E-03
    V_V2        -1.669E-03
    V_V4        -2.200E-03
    V_V1        -8.305E-04
    X_U3.V_VCM_MAX  -8.500E-12
    X_U3.V_VCM_MIN   8.502E-12
    X_U3.V_V_GRN   2.050E-10
    X_U3.V_V_GRP  -2.050E-10
    X_U3.V_V_ISCN   5.550E-11
    X_U3.V_V_ISCP  -5.550E-11
    X_U3.V_V_ORN   0.000E+00
    X_U3.V_V_ORP   0.000E+00
    X_U3.X_H1.VH_H1   8.306E-04
    X_U3.X_H2.VH_H2  -3.266E-09
    X_U3.X_H3.VH_H3   3.247E-09

    TOTAL POWER DISSIPATION   5.85E-02  WATTS



          JOB CONCLUDED

**** 09/30/25 11:20:31 **** PSpice 23.1.0 (30 January 2024) *** ID# 0 ********

 ** Profile: "SCHEMATIC1-bias"  [ C:\Sebas\02-Facultad\PSpice\02 - Voltímetro\005_etapa_uno_compensado_sim\005_etapa_uno_compensado_s


 ****     JOB STATISTICS SUMMARY


******************************************************************************



  Total job time (using Solver 1)   =        3.44
