
**** 03/11/25 14:14:53 **** PSpice 23.1.0 (30 January 2024) *** ID# 0 ********

 ** Profile: "SCHEMATIC1-bias"  [ c:\users\sebas\onedrive - alum.uca.es\04 - proyectos\01 - [goal] tfg\01 - diseños\02 - módulo medid


 ****     CIRCUIT DESCRIPTION


******************************************************************************




** Creating circuit file "bias.cir" 
** WARNING: THIS AUTOMATICALLY GENERATED FILE MAY BE OVERWRITTEN BY SUBSEQUENT SIMULATIONS

*Libraries: 
* Profile Libraries :
* Local Libraries :
* From [PSPICE NETLIST] section of C:\cds_spb_home\cdssetup\OrCAD_PSpiceTIPSpice_Install\23.1.0\PSpice.ini file:
.lib "nom_pspti.lib" 
.lib "nom.lib" 

*Analysis directives: 
.OPTIONS ADVCONV
.OPTIONS FILEMODELSEARCH
.PROBE64 V(alias(*)) I(alias(*)) W(alias(*)) D(alias(*)) NOISE(alias(*)) 
.INC "..\SCHEMATIC1.net" 



**** INCLUDING SCHEMATIC1.net ****
* source 03_OFFSET_AI_COMP
X_U1         N15886 N16102 VCC VEE N16086 N16112 N16020 N16106 INA849
R_R1         N16106 N16020  60.6 TC=0,0 
R_R2         0 N16102  50 TC=0,0 
V_V3         0 VEE 5Vdc
R_RShunt         N16102 N15886  0.01 TC=0,0 
V_V1         N15886 0 5
R_RL         0 N16086  10Meg TC=0,0 
V_V2         VCC 0 5Vdc
V_V4         N16112 0 -1.01m

**** RESUMING bias.cir ****
.END

**** 03/11/25 14:14:53 **** PSpice 23.1.0 (30 January 2024) *** ID# 0 ********

 ** Profile: "SCHEMATIC1-bias"  [ c:\users\sebas\onedrive - alum.uca.es\04 - proyectos\01 - [goal] tfg\01 - diseños\02 - módulo medid


 ****     Diode MODEL PARAMETERS


******************************************************************************




               X_U1.X_U1.DVN   X_U1.X_U16.DVN  X_U1.X_U7.DVNF  X_U1.X_U8.DVNF  
          IS  100.000000E-18  100.000000E-18  100.000000E-18  100.000000E-18 
          KF    3.162278E-12    3.162278E-12    3.162278E-12    3.162278E-12 


               X_U1.X_INA849_OUTAMP.X_U1.DVN 
          IS  100.000000E-18 
          KF    3.872984E-12 


**** 03/11/25 14:14:53 **** PSpice 23.1.0 (30 January 2024) *** ID# 0 ********

 ** Profile: "SCHEMATIC1-bias"  [ c:\users\sebas\onedrive - alum.uca.es\04 - proyectos\01 - [goal] tfg\01 - diseños\02 - módulo medid


 ****     Resistor MODEL PARAMETERS


******************************************************************************




               X_U1.R_NOISELESS 
  T_Measured   27            
   T_Current -273.15         
           R    1            


               X_U1.X_INA849_INAMP0.R_NOISELESS 
  T_Measured   27            
   T_Current -273.15         
           R    1            


               X_U1.X_INA849_INAMP1.R_NOISELESS 
  T_Measured   27            
   T_Current -273.15         
           R    1            


               X_U1.X_INA849_OUTAMP.R_NOISELESS 
  T_Measured   27            
   T_Current -273.15         
           R    1            


**** 03/11/25 14:14:53 **** PSpice 23.1.0 (30 January 2024) *** ID# 0 ********

 ** Profile: "SCHEMATIC1-bias"  [ c:\users\sebas\onedrive - alum.uca.es\04 - proyectos\01 - [goal] tfg\01 - diseños\02 - módulo medid


 ****     Voltage Controlled Switch MODEL PARAMETERS


******************************************************************************




               X_U1.X_U12.ESD_SW 
         RON   50            
        ROFF    1.000000E+12 
         VON     .5          
        VOFF     .1          


               X_U1.X_U13.ESD_SW 
         RON   50            
        ROFF    1.000000E+12 
         VON     .5          
        VOFF     .1          


               X_U1.X_U14.ESD_SW 
         RON   50            
        ROFF    1.000000E+12 
         VON     .5          
        VOFF     .1          


               X_U1.X_U15.ESD_SW 
         RON   50            
        ROFF    1.000000E+12 
         VON     .5          
        VOFF     .1          


               X_U1.X_U3.ESD_SW 
         RON   50            
        ROFF    1.000000E+12 
         VON     .5          
        VOFF     .1          


               X_U1.X_U4.ESD_SW 
         RON   50            
        ROFF    1.000000E+12 
         VON     .5          
        VOFF     .1          


               X_U1.X_INA849_OUTAMP.X_U20.ESD_SW 
         RON   50            
        ROFF    1.000000E+12 
         VON     .5          
        VOFF     .1          


**** 03/11/25 14:14:53 **** PSpice 23.1.0 (30 January 2024) *** ID# 0 ********

 ** Profile: "SCHEMATIC1-bias"  [ c:\users\sebas\onedrive - alum.uca.es\04 - proyectos\01 - [goal] tfg\01 - diseños\02 - módulo medid


 ****     SMALL SIGNAL BIAS SOLUTION       TEMPERATURE =   27.000 DEG C


******************************************************************************



 NODE   VOLTAGE     NODE   VOLTAGE     NODE   VOLTAGE     NODE   VOLTAGE


(  VCC)    5.0000  (  VEE)   -5.0000  (N15886)    5.0000 (N16020)    2.4989     

(N16086)    -.0010 (N16102)    4.9990 (N16106)    2.4989 (N16112)    -.0010     

(X_U1.INN)    2.4999                  (X_U1.INP)    2.4999                      

(X_U1.MID) 1.851E-09                  (X_U1.ESDN)    4.9990                     

(X_U1.ESDP)    5.0000                 (X_U1.NODE1)    2.4989                    

(X_U1.NODE2)    2.4989                (X_U1.VCC_B)    4.9999                    

(X_U1.VEE_B)   -4.9999                (X_U1.X_U1.3)    0.0000                   

(X_U1.X_U1.4)    0.0000               (X_U1.X_U1.5)    0.0000                   

(X_U1.X_U1.6)    0.0000               (X_U1.X_U1.7)     .8338                   

(X_U1.X_U1.8)     .8338               (X_U1.X_U7.3)    0.0000                   

(X_U1.X_U7.4)    0.0000               (X_U1.X_U7.5)    0.0000                   

(X_U1.X_U7.6)    0.0000               (X_U1.X_U7.7)     .8338                   

(X_U1.X_U7.8)     .8338               (X_U1.X_U8.3)    0.0000                   

(X_U1.X_U8.4)    0.0000               (X_U1.X_U8.5)    0.0000                   

(X_U1.X_U8.6)    0.0000               (X_U1.X_U8.7)     .8338                   

(X_U1.X_U8.8)     .8338               (X_U1.N969449)    3.9999                  

(X_U1.N969473)    3.9999              (X_U1.N969492)    3.9999                  

(X_U1.X_U16.3)    0.0000              (X_U1.X_U16.4)    0.0000                  

(X_U1.X_U16.5)    0.0000              (X_U1.X_U16.6)    0.0000                  

(X_U1.X_U16.7)     .8338              (X_U1.X_U16.8)     .8338                  

(X_U1.N1383384)    4.9990             (X_U1.N1383401)    5.0000                 

(X_U1.N1384032)    5.0000             (X_U1.N1384907)    5.0000                 

(X_U1.N1385067)    2.4999             (X_U1.N1385271)   -2.4999                 

(X_U1.N1385582)    2.4999             (X_U1.N1386246)    2.4999                 

(X_U1.N1386314)    2.4999             (X_U1.N1386364)    4.9990                 

(X_U1.N1386438)   -2.4999             (X_U1.N1602365) 1.851E-09                 

(X_U1.N1602505)    4.9999             (X_U1.N1602545)   -4.9999                 

(X_U1.N1604535)    1.2489             (X_U1.N1604573)    1.2489                 

(X_U1.X_INA849_OUTAMP.VCLP)   -1.4089 (X_U1.X_INA849_OUTAMP.CLAMP)   -1.4096    

(X_U1.X_INA849_OUTAMP.PSRR+) 5.001E-06                                          

(X_U1.X_INA849_OUTAMP.PSRR-)-5.000E-06                                          

(X_U1.X_INA849_OUTAMP.VIMON)    -.2500                                          

(X_U1.X_INA849_INAMP0.CLAMP1)    2.8241                                         

(X_U1.X_INA849_INAMP0.VIMON1)     .2500                                         

(X_U1.X_INA849_INAMP1.CLAMP1)    2.8241                                         

(X_U1.X_INA849_INAMP1.VIMON1)     .2500                                         

(X_U1.X_INA849_OUTAMP.VOUT_S)    -.0010                                         

(X_U1.X_INA849_OUTAMP.VSENSE)   -1.4096                                         

(X_U1.X_INA849_OUTAMP.X_U1.3)    0.0000                                         

(X_U1.X_INA849_OUTAMP.X_U1.4)    0.0000                                         

(X_U1.X_INA849_OUTAMP.X_U1.5)    0.0000                                         

(X_U1.X_INA849_OUTAMP.X_U1.6)    0.0000                                         

(X_U1.X_INA849_OUTAMP.X_U1.7)     .8338                                         

(X_U1.X_INA849_OUTAMP.X_U1.8)     .8338                                         

(X_U1.X_INA849_INAMP0.N256245)   28.9430                                        

(X_U1.X_INA849_INAMP0.N256255)    8.2576                                        

(X_U1.X_INA849_INAMP0.N256265)   28.9430                                        

(X_U1.X_INA849_INAMP0.N256273)   28.3070                                        

(X_U1.X_INA849_INAMP0.N256555)   28.9430                                        

(X_U1.X_INA849_INAMP0.N256573)   28.9430                                        

(X_U1.X_INA849_INAMP0.N256623)   28.9300                                        

(X_U1.X_INA849_INAMP0.N256643)   28.9300                                        

(X_U1.X_INA849_INAMP0.N256659)   28.9300                                        

(X_U1.X_INA849_INAMP0.N256703)   28.9250                                        

(X_U1.X_INA849_INAMP0.N256819)    2.4989                                        

(X_U1.X_INA849_INAMP0.N257223)   28.9430                                        

(X_U1.X_INA849_INAMP0.N257277)   28.9300                                        

(X_U1.X_INA849_INAMP0.N261786) 319.2E-06                                        

(X_U1.X_INA849_INAMP0.N928127)    3.9999                                        

(X_U1.X_INA849_INAMP0.N928131)    3.9999                                        

(X_U1.X_INA849_INAMP0.N957915)   28.9300                                        

(X_U1.X_INA849_INAMP0.N957967)   28.9300                                        

(X_U1.X_INA849_INAMP0.N970369)     .2500                                        

(X_U1.X_INA849_INAMP0.VSENSE1)    2.8241                                        

(X_U1.X_INA849_INAMP1.N256245)   28.9430                                        

(X_U1.X_INA849_INAMP1.N256255)    8.2576                                        

(X_U1.X_INA849_INAMP1.N256265)   28.9430                                        

(X_U1.X_INA849_INAMP1.N256273)   28.3070                                        

(X_U1.X_INA849_INAMP1.N256555)   28.9430                                        

(X_U1.X_INA849_INAMP1.N256573)   28.9430                                        

(X_U1.X_INA849_INAMP1.N256623)   28.9300                                        

(X_U1.X_INA849_INAMP1.N256643)   28.9300                                        

(X_U1.X_INA849_INAMP1.N256659)   28.9300                                        

(X_U1.X_INA849_INAMP1.N256703)   28.9250                                        

(X_U1.X_INA849_INAMP1.N256819)    2.4989                                        

(X_U1.X_INA849_INAMP1.N257223)   28.9430                                        

(X_U1.X_INA849_INAMP1.N257277)   28.9300                                        

(X_U1.X_INA849_INAMP1.N261786) 319.2E-06                                        

(X_U1.X_INA849_INAMP1.N928127)    3.9999                                        

(X_U1.X_INA849_INAMP1.N928131)    3.9999                                        

(X_U1.X_INA849_INAMP1.N957915)   28.9300                                        

(X_U1.X_INA849_INAMP1.N957967)   28.9300                                        

(X_U1.X_INA849_INAMP1.N970369)     .2500                                        

(X_U1.X_INA849_INAMP1.VSENSE1)    2.8241                                        

(X_U1.X_INA849_OUTAMP.N261787)-228.2E-09                                        

(X_U1.X_INA849_OUTAMP.N953165)    1.2489                                        

(X_U1.X_INA849_OUTAMP.N953203)    1.2489                                        

(X_U1.X_INA849_OUTAMP.N989282)    -.2500                                        

(X_U1.X_INA849_OUTAMP.N995776)    1.2489                                        

(X_U1.X_INA849_OUTAMP.VCC_CLP)    4.9058                                        

(X_U1.X_INA849_OUTAMP.VEE_CLP)   -4.9471                                        

(X_U1.X_INA849_OUTAMP.N1388079)    -.0527                                       

(X_U1.X_INA849_OUTAMP.N1388089)-4.999E-06                                       

(X_U1.X_INA849_OUTAMP.N1388099)-4.999E-06                                       

(X_U1.X_INA849_OUTAMP.N1388109)-298.2E-09                                       

(X_U1.X_INA849_OUTAMP.N1388119)-4.999E-06                                       

(X_U1.X_INA849_OUTAMP.N1388129)-298.2E-09                                       

(X_U1.X_INA849_OUTAMP.N1388139)-5.000E-06                                       

(X_U1.X_INA849_OUTAMP.N1388149)-5.000E-06                                       

(X_U1.X_INA849_OUTAMP.N1388167)-5.000E-06                                       

(X_U1.X_INA849_OUTAMP.N1388177)-5.000E-06                                       

(X_U1.X_INA849_OUTAMP.N1388615)-5.000E-06                                       

(X_U1.X_INA849_OUTAMP.N1388629)-5.000E-06                                       

(X_U1.X_INA849_OUTAMP.N1389051)    9.0899                                       

(X_U1.X_INA849_OUTAMP.N1389061) 5.001E-06                                       

(X_U1.X_INA849_OUTAMP.N1389071) 5.001E-06                                       

(X_U1.X_INA849_OUTAMP.N1389081) 5.001E-06                                       

(X_U1.X_INA849_OUTAMP.N1389297) 5.001E-06                                       

(X_U1.X_INA849_OUTAMP.N1394706)    1.2489                                       

(X_U1.X_INA849_OUTAMP.N1394772)    1.2489                                       

(X_U1.X_INA849_OUTAMP.N1401129)    2.9999                                       

(X_U1.X_INA849_OUTAMP.N1401213)    1.2489                                       

(X_U1.X_INA849_OUTAMP.N1401349)   -2.9999                                       

(X_U1.X_INA849_OUTAMP.N1403176)    -.0010                                       

(X_U1.X_INA849_OUTAMP.N1428789)   -8.9940                                       

(X_U1.X_INA849_OUTAMP.N1428799)   -1.4092                                       

(X_U1.X_INA849_OUTAMP.N1428809)   -8.9916                                       

(X_U1.X_INA849_OUTAMP.N1428819)   -1.4089                                       

(X_U1.X_INA849_OUTAMP.N1428991)   -1.4096                                       

(X_U1.X_INA849_OUTAMP.N1661226)    4.9058                                       

(X_U1.X_INA849_OUTAMP.N1661302)    4.9058                                       

(X_U1.X_INA849_OUTAMP.N1661462) 1.851E-09                                       

(X_U1.X_INA849_OUTAMP.N1661466) 1.851E-09                                       

(X_U1.X_INA849_OUTAMP.N1661612)   -4.9471                                       

(X_U1.X_INA849_OUTAMP.N1661626)   -4.9471                                       

(X_U1.X_INA849_OUTAMP.N1661666) 1.851E-09                                       

(X_U1.X_INA849_OUTAMP.N1661680) 1.851E-09                                       

(X_U1.X_INA849_OUTAMP.N1663647)   34.0000                                       

(X_U1.X_INA849_OUTAMP.N1663665)  220.0000                                       

(X_U1.X_INA849_OUTAMP.N1663763) 1.851E-09                                       

(X_U1.X_INA849_OUTAMP.N1663805) 1.851E-09                                       

(X_U1.X_INA849_OUTAMP.N1663947) 1.851E-09                                       

(X_U1.X_INA849_OUTAMP.N1663951) 1.851E-09                                       

(X_U1.X_INA849_OUTAMP.N1664077) 1.851E-09                                       

(X_U1.X_INA849_OUTAMP.N1664091) 1.851E-09                                       

(X_U1.X_INA849_OUTAMP.N1664165) 1.851E-09                                       

(X_U1.X_INA849_OUTAMP.N1664179) 1.851E-09                                       

(X_U1.X_INA849_OUTAMP.N1664201)  -34.0000                                       

(X_U1.X_INA849_OUTAMP.N1664265) -220.0000                                       

(X_U1.X_INA849_OUTAMP.N1696516)   -1.4089                                       

(X_U1.X_INA849_OUTAMP.N1939474) -125.2900                                       

(X_U1.X_INA849_OUTAMP.N1939484)    -.0952                                       

(X_U1.X_INA849_OUTAMP.N1939494) -125.3000                                       

(X_U1.X_INA849_OUTAMP.N1939504)   -1.0939                                       

(X_U1.X_INA849_OUTAMP.N1939514) -125.2400                                       

(X_U1.X_INA849_OUTAMP.N1939524)  -76.7180                                       

(X_U1.X_INA849_OUTAMP.N1939534) -125.0400                                       

(X_U1.X_INA849_OUTAMP.N1939542)   -6.2518                                       

(X_U1.X_INA849_OUTAMP.N1939552) -125.0200                                       

(X_U1.X_INA849_OUTAMP.N1939562)   -6.2510                                       

(X_U1.X_INA849_OUTAMP.N1939572) -125.0100                                       

(X_U1.X_INA849_OUTAMP.N1939580)   -6.2502                                       

(X_U1.X_INA849_OUTAMP.N1939722) -125.2500                                       

(X_U1.X_INA849_OUTAMP.N1939730) -125.2500                                       

(X_U1.X_INA849_OUTAMP.N1939746) -125.2500                                       

(X_U1.X_INA849_OUTAMP.N1939754) -125.2500                                       

(X_U1.X_INA849_OUTAMP.N1939792) -125.0500                                       

(X_U1.X_INA849_OUTAMP.N1939800) -125.0500                                       

(X_U1.X_INA849_OUTAMP.N1939816) -125.0500                                       

(X_U1.X_INA849_OUTAMP.N1939824) -125.0500                                       

(X_U1.X_INA849_OUTAMP.N1940296) -125.0000                                       

(X_U1.X_INA849_OUTAMP.N1940758) -125.2500                                       

(X_U1.X_INA849_OUTAMP.N1940790) -125.2500                                       

(X_U1.X_INA849_OUTAMP.N1940844) -125.0500                                       

(X_U1.X_INA849_OUTAMP.N1940876) -125.0500                                       

(X_U1.X_INA849_OUTAMP.N2052331)    1.2489                                       

(X_U1.X_INA849_OUTAMP.OUT_NODE)    -.0010                                       

(X_U1.X_INA849_OUTAMP.CL_CLAMP_OP)   -1.4089                                    

(X_U1.X_INA849_OUTAMP.CLAW_CLAMP_OP)   -1.4089           




    VOLTAGE SOURCE CURRENTS
    NAME         CURRENT

    V_V3        -5.950E-03
    V_V1        -9.998E-02
    V_V2        -5.700E-03
    V_V4         2.500E-04
    X_U1.V_VB    1.070E-15
    X_U1.V_VCM_MAX  -2.500E-12
    X_U1.V_VCM_MAX1  -2.500E-12
    X_U1.V_VCM_MIN   2.499E-12
    X_U1.V_VCM_MIN1   2.500E-12
    X_U1.X_INA849_OUTAMP.V_VCM_MAX2  -3.000E-12
    X_U1.X_INA849_OUTAMP.V_VCM_MIN2   3.000E-12
    X_U1.X_INA849_OUTAMP.V_V_GRN   2.200E-07
    X_U1.X_INA849_OUTAMP.V_V_GRP  -2.200E-07
    X_U1.X_INA849_OUTAMP.V_V_ISCN   3.400E-11
    X_U1.X_INA849_OUTAMP.V_V_ISCP  -3.400E-11
    X_U1.X_INA849_INAMP0.X_H_IMON11.VH_H_IMON11   2.500E-04
    X_U1.X_INA849_INAMP1.X_H_IMON11.VH_H_IMON11   2.500E-04
    X_U1.X_INA849_OUTAMP.X_H_IMON.VH_H_IMON  -2.500E-04

    TOTAL POWER DISSIPATION   5.58E-01  WATTS



          JOB CONCLUDED

