
**** 03/19/25 12:20:49 **** PSpice 23.1.0 (30 January 2024) *** ID# 0 ********

 ** Profile: "SCHEMATIC1-bias"  [ c:\sebas\02-facultad\pspice\02 - voltímetro\003_etapa_uno_medicion_offset\003_etapa_uno_medicion_of


 ****     CIRCUIT DESCRIPTION


******************************************************************************




** Creating circuit file "bias.cir" 
** WARNING: THIS AUTOMATICALLY GENERATED FILE MAY BE OVERWRITTEN BY SUBSEQUENT SIMULATIONS

*Libraries: 
* Profile Libraries :
* Local Libraries :
* From [PSPICE NETLIST] section of C:\cds_spb_home\cdssetup\OrCAD_PSpiceTIPSpice_Install\23.1.0\PSpice.ini file:
.lib "nom_pspti.lib" 
.lib "nom.lib" 
.inc "C:\Users\sebas\OneDrive - alum.uca.es\04 - Proyectos\01 - [GOAL] TFG\Documentación\include.txt" 

*Analysis directives: 

**** INCLUDING include.txt ****
+ .options PTRANABSTOL=10u PTRANVNTOL=100u


**** RESUMING bias.cir ****
.OPTIONS ADVCONV
.OPTIONS FILEMODELSEARCH
.PROBE64 V(alias(*)) I(alias(*)) W(alias(*)) D(alias(*)) NOISE(alias(*)) 
.INC "..\SCHEMATIC1.net" 



**** INCLUDING SCHEMATIC1.net ****
* source 003_ETAPA_UNO_MEDICION_OFFSET
V_V1         0 N18979 0
V_V3         VCC 0 10Vdc
R_R4         N18599 N18613  1k TC=0,0 
V_V2         N18823 0  AC 0
+SIN 0 0 50 0 0 0
X_U3         N18833 N18599 VCC VEE N18613 OPAx210
R_R7         0 N18833  100k TC=0,0 
V_V4         0 VEE 10Vdc
R_R6         N18979 N18833  1k TC=0,0 
R_R5         N18823 N18833  1k TC=0,0 
R_R3         0 N18599  1k TC=0,0 

**** RESUMING bias.cir ****
.END

**** 03/19/25 12:20:49 **** PSpice 23.1.0 (30 January 2024) *** ID# 0 ********

 ** Profile: "SCHEMATIC1-bias"  [ c:\sebas\02-facultad\pspice\02 - voltímetro\003_etapa_uno_medicion_offset\003_etapa_uno_medicion_of


 ****     Diode MODEL PARAMETERS


******************************************************************************




               X_U3.X_U39.DVNF X_U3.X_U40.DVNF X_U3.X_U43.DVN  
          IS  100.000000E-18  100.000000E-18  100.000000E-18 
          KF    3.162278E-12    3.162278E-12    3.162278E-12 


**** 03/19/25 12:20:49 **** PSpice 23.1.0 (30 January 2024) *** ID# 0 ********

 ** Profile: "SCHEMATIC1-bias"  [ c:\sebas\02-facultad\pspice\02 - voltímetro\003_etapa_uno_medicion_offset\003_etapa_uno_medicion_of


 ****     Resistor MODEL PARAMETERS


******************************************************************************




               X_U3.R_NOISELESS 
  T_Measured   27            
   T_Current -273.15         
           R    1            


**** 03/19/25 12:20:49 **** PSpice 23.1.0 (30 January 2024) *** ID# 0 ********

 ** Profile: "SCHEMATIC1-bias"  [ c:\sebas\02-facultad\pspice\02 - voltímetro\003_etapa_uno_medicion_offset\003_etapa_uno_medicion_of


 ****     Voltage Controlled Switch MODEL PARAMETERS


******************************************************************************




               X_U3.X_S1._S1   X_U3.X_S2._S2   
         RON     .01             .01         
        ROFF    1.000000E+12    1.000000E+12 
         VON     .01             .01         
        VOFF    0               0            


               X_U3.X_U20.ESD_SW 
         RON   50            
        ROFF    1.000000E+12 
         VON     .7          
        VOFF     .65         


               X_U3.X_U21.ESD_SW 
         RON   50            
        ROFF    1.000000E+12 
         VON     .5          
        VOFF     .45         


               X_U3.X_U25.OL_SW 
         RON    1.000000E-03 
        ROFF    1.000000E+09 
         VON     .9          
        VOFF     .8          


               X_U3.X_U5.ESD_SW 
         RON   50            
        ROFF    1.000000E+12 
         VON     .5          
        VOFF     .45         


**** 03/19/25 12:20:49 **** PSpice 23.1.0 (30 January 2024) *** ID# 0 ********

 ** Profile: "SCHEMATIC1-bias"  [ c:\sebas\02-facultad\pspice\02 - voltímetro\003_etapa_uno_medicion_offset\003_etapa_uno_medicion_of


 ****     SMALL SIGNAL BIAS SOLUTION       TEMPERATURE =   27.000 DEG C


******************************************************************************



 NODE   VOLTAGE     NODE   VOLTAGE     NODE   VOLTAGE     NODE   VOLTAGE


(  VCC)   10.0000  (  VEE)  -10.0000  (N18599) 4.354E-06 (N18613) 8.907E-06     

(N18823)    0.0000 (N18833)-149.2E-09 (N18979)    0.0000 (X_U3.MID)-20.28E-24   

(X_U3.V11)-3.257E-09                  (X_U3.V12)-3.257E-09                      

(X_U3.ESDN) 4.354E-06                 (X_U3.ESDP)-149.2E-09                     

(X_U3.VCLP) 22.09E-06                 (X_U3.CLAMP) 22.04E-06                    

(X_U3.VCC_B)   10.0000                (X_U3.VEE_B)  -10.0000                    

(X_U3.VIMON) 4.554E-06                (X_U3.VOUT_S) 8.907E-06                   

(X_U3.VSENSE) 22.04E-06               (X_U3.VCC_CLP)    9.9670                  

(X_U3.VEE_CLP)   -9.9670              (X_U3.X_U39.3)    0.0000                  

(X_U3.X_U39.4)    0.0000              (X_U3.X_U39.5)    0.0000                  

(X_U3.X_U39.6)    0.0000              (X_U3.X_U39.7)     .8338                  

(X_U3.X_U39.8)     .8338              (X_U3.X_U40.3)    0.0000                  

(X_U3.X_U40.4)    0.0000              (X_U3.X_U40.5)    0.0000                  

(X_U3.X_U40.6)    0.0000              (X_U3.X_U40.7)     .8338                  

(X_U3.X_U40.8)     .8338              (X_U3.X_U43.3)    0.0000                  

(X_U3.X_U43.4)    0.0000              (X_U3.X_U43.5)    0.0000                  

(X_U3.X_U43.6)    0.0000              (X_U3.X_U43.7)     .8338                  

(X_U3.X_U43.8)     .8338              (X_U3.CL_CLAMP) 22.09E-06                 

(X_U3.N5296587) 501.0E-09             (X_U3.N5296597)    8.3500                 

(X_U3.N5296613)-106.6E-12             (X_U3.N5296623)-14.92E-15                 

(X_U3.N5296637)   -2.3900             (X_U3.N5296643)-501.9E-09                 

(X_U3.N5297649) 3.351E-06             (X_U3.N5297653) 3.351E-06                 

(X_U3.N5297689) 3.351E-06             (X_U3.N5297697) 4.354E-06                 

(X_U3.N5297811) 8.907E-06             (X_U3.N5297995) 22.09E-06                 

(X_U3.N5298043) 4.554E-06             (X_U3.N5298247)     .0012                 

(X_U3.N5298259) 1.038E-06             (X_U3.N5298335)    8.5000                 

(X_U3.N5298539)     .0012             (X_U3.N5298547) 11.68E-06                 

(X_U3.N5298565) 8.907E-06             (X_U3.N5298577)-149.2E-09                 

(X_U3.N5298735) 503.2E-12             (X_U3.N5298821) 22.04E-06                 

(X_U3.N5298855) 22.04E-06             (X_U3.N5298889) 22.04E-06                 

(X_U3.N5298911) 22.09E-06             (X_U3.N5298977)     .0012                 

(X_U3.N5298999) 840.5E-06             (X_U3.N5299017)     .0012                 

(X_U3.N5299035)     .0012             (X_U3.N5299057)     .0012                 

(X_U3.N5299111)     .0012             (X_U3.N5299325) 4.354E-06                 

(X_U3.N5299343) 4.354E-06             (X_U3.N5300195)     .0012                 

(X_U3.N5300247) 4.354E-06             (X_U3.N5300373)     .0012                 

(X_U3.N5300937)   -8.5000             (X_U3.N5301533)   55.5000                 

(X_U3.N5301537) 22.04E-06             (X_U3.N5301543)  205.0000                 

(X_U3.N5301563)-20.28E-24             (X_U3.N5301567)-20.28E-24                 

(X_U3.N5301577)-20.28E-24             (X_U3.N5301581)-20.28E-24                 

(X_U3.N5301591)-20.28E-24             (X_U3.N5301595)-20.28E-24                 

(X_U3.N5302227)-20.28E-24             (X_U3.N5302261)-20.28E-24                 

(X_U3.N5302295)-20.28E-24             (X_U3.N5302333)-20.28E-24                 

(X_U3.N5302369)-20.28E-24             (X_U3.N5302405)-20.28E-24                 

(X_U3.N5302475)-20.28E-24             (X_U3.N5302495)  -55.5000                 

(X_U3.N5302499) -205.0000             (X_U3.N5302951)   10.0000                 

(X_U3.N5302991)  -10.0000             (X_U3.N5303741)    9.9670                 

(X_U3.N5303747)   -3.2500             (X_U3.N5303803)    3.2500                 

(X_U3.N5303823)    9.9670             (X_U3.N5304181)-3.257E-09                 

(X_U3.N5304195)-20.28E-24             (X_U3.N5304303)   -3.2500                 

(X_U3.N5304315)   -3.2500             (X_U3.N5304383)    3.2500                 

(X_U3.N5304405)    3.2500             (X_U3.N5304435)-3.257E-09                 

(X_U3.N5304593)   -9.9670             (X_U3.N5304615)   -9.9670                 

(X_U3.N5331892)-14.92E-15             (X_U3.N5331902)-13.09E-18                 

(X_U3.N5336063)-14.92E-15             (X_U3.N5354255) 22.04E-06                 

(X_U3.N5356232) 50.79E-09             (X_U3.N52998091)     .0012                

(X_U3.CLAW_CLAMP) 22.09E-06           (X_U3.SW_OL_OPAx210)-20.28E-24        




    VOLTAGE SOURCE CURRENTS
    NAME         CURRENT

    V_V1         1.492E-10
    V_V3        -2.200E-03
    V_V2        -1.492E-10
    V_V4        -2.200E-03
    X_U3.V_VCM_MAX  -8.502E-12
    X_U3.V_VCM_MIN   8.502E-12
    X_U3.V_V_GRN   2.050E-10
    X_U3.V_V_GRP  -2.050E-10
    X_U3.V_V_ISCN   5.550E-11
    X_U3.V_V_ISCP  -5.550E-11
    X_U3.V_V_ORN   0.000E+00
    X_U3.V_V_ORP   0.000E+00
    X_U3.X_H1.VH_H1   4.554E-09
    X_U3.X_H2.VH_H2  -3.257E-09
    X_U3.X_H3.VH_H3   3.257E-09

    TOTAL POWER DISSIPATION   4.40E-02  WATTS



          JOB CONCLUDED

**** 03/19/25 12:20:49 **** PSpice 23.1.0 (30 January 2024) *** ID# 0 ********

 ** Profile: "SCHEMATIC1-bias"  [ c:\sebas\02-facultad\pspice\02 - voltímetro\003_etapa_uno_medicion_offset\003_etapa_uno_medicion_of


 ****     JOB STATISTICS SUMMARY


******************************************************************************



  Total job time (using Solver 1)   =        3.77
